
**** 09/09/21 08:39:30 *********** Evaluation PSpice (Nov 1999) **************

 * I:\3. East West University\BSC   IN   CSE\COURSE\5th SEMESTER = SUMMER 2021\CSE209\CSE209 Lab Experiment\Project\Schematic2.sch


 ****     CIRCUIT DESCRIPTION


******************************************************************************




* Schematics Version 9.1 - Web Update 1
* Thu Sep 09 08:39:30 2021



** Analysis setup **
.OP 


* From [PSPICE NETLIST] section of pspiceev.ini:
.lib "nom.lib"

.INC "Schematic2.net"

**** INCLUDING Schematic2.net ****
* Schematics Netlist *



R_R1         POS NEG  1  
R_R2         POS 0  4  
R_R3         $N_0001 0  1  
R_R4         CP 0  4  
R_R5         NEG $N_0002  2  
H_H1         $N_0001 POS VH_H1 4
VH_H1        NEG CP 0V
G_G1         NEG $N_0001 POS NEG 2
R_R7         $N_0003 0  5  
R_R6         $N_0004 0  2  
I_I3         $N_0004 $N_0003 DC 4A  
V_V1         $N_0002 0 10

**** RESUMING Schematic2.cir ****
.INC "Schematic2.als"



**** INCLUDING Schematic2.als ****
* Schematics Aliases *

.ALIASES
R_R1            R1(1=POS 2=NEG )
R_R2            R2(1=POS 2=0 )
R_R3            R3(1=$N_0001 2=0 )
R_R4            R4(1=CP 2=0 )
R_R5            R5(1=NEG 2=$N_0002 )
H_H1            H1(3=$N_0001 4=POS )
VH_H1           H1(1=NEG 2=CP )
G_G1            G1(3=NEG 4=$N_0001 1=POS 2=NEG )
R_R7            R7(1=$N_0003 2=0 )
R_R6            R6(1=$N_0004 2=0 )
I_I3            I3(+=$N_0004 -=$N_0003 )
V_V1            V1(+=$N_0002 -=0 )
_    _(CP=CP)
_    _(POS=POS)
_    _(CN=NEG)
_    _(NEG=NEG)
.ENDALIASES


**** RESUMING Schematic2.cir ****
.probe


.END

**** 09/09/21 08:39:30 *********** Evaluation PSpice (Nov 1999) **************

 * I:\3. East West University\BSC   IN   CSE\COURSE\5th SEMESTER = SUMMER 2021\CSE209\CSE209 Lab Experiment\Project\Schematic2.sch


 ****     SMALL SIGNAL BIAS SOLUTION       TEMPERATURE =   27.000 DEG C


******************************************************************************



 NODE   VOLTAGE     NODE   VOLTAGE     NODE   VOLTAGE     NODE   VOLTAGE


(   CP)    -.6061  (  NEG)    -.6061  (  POS)    4.8485  ($N_0001)    4.2424    

($N_0002)   10.0000                   ($N_0003)   20.0000                       

($N_0004)   -8.0000                   




    VOLTAGE SOURCE CURRENTS
    NAME         CURRENT

    VH_H1       -1.515E-01
    V_V1        -5.303E+00

    TOTAL POWER DISSIPATION   5.30E+01  WATTS


**** 09/09/21 08:39:30 *********** Evaluation PSpice (Nov 1999) **************

 * I:\3. East West University\BSC   IN   CSE\COURSE\5th SEMESTER = SUMMER 2021\CSE209\CSE209 Lab Experiment\Project\Schematic2.sch


 ****     OPERATING POINT INFORMATION      TEMPERATURE =   27.000 DEG C


******************************************************************************






**** VOLTAGE-CONTROLLED CURRENT SOURCES


NAME         G_G1      
I-SOURCE     1.091E+01


**** CURRENT-CONTROLLED VOLTAGE SOURCES


NAME         H_H1      
V-SOURCE    -6.061E-01
I-SOURCE     6.667E+00

          JOB CONCLUDED

          TOTAL JOB TIME            0.00
